T7A8C 268:706 SEGGER J-Link V6.44 Log File (0000ms, 1900ms total)
T7A8C 268:706 DLL Compiled: Mar  1 2019 17:32:34 (0000ms, 1900ms total)
T7A8C 268:706 Logging started @ 2020-03-09 17:42 (0000ms, 1900ms total)
T7A8C 268:706 JLINK_SetWarnOutHandler(...) (0000ms, 1900ms total)
T7A8C 268:706 JLINK_OpenEx(...)
Firmware: J-Link V9 compiled Apr 21 2017 11:08:06
Hardware: V9.20
S/N: 29999997
Feature(s): GDB, RDI, FlashBP, FlashDL, JFlash
TELNET listener socket opened on port 19021WEBSRV 
Starting webserver (1324ms, 3224ms total)
T7A8C 268:706 WEBSRV Webserver running on local port 19080 (1324ms, 3224ms total)
T7A8C 268:706   returns O.K. (1324ms, 3224ms total)
T7A8C 270:030 JLINK_GetEmuCaps()  returns 0xB9FF7BBF (0000ms, 3224ms total)
T7A8C 270:030 JLINK_TIF_GetAvailable(...) (0001ms, 3225ms total)
T7A8C 270:031 JLINK_SetErrorOutHandler(...) (0000ms, 3225ms total)
T7A8C 270:031 JLINK_ExecCommand("ProjectFile = "E:\HD\HCF710\HCF710_IAP\HCF710_IAP_APP_UCOS\JLinkSettings.ini"", ...).   returns 0x00 (0003ms, 3228ms total)
T7A8C 270:041 JLINK_ExecCommand("Device = STM32L151CB", ...). Device "STM32L151CB" selected.  returns 0x00 (0023ms, 3251ms total)
T7A8C 270:064 JLINK_ExecCommand("DisableConnectionTimeout", ...).   returns 0x01 (0000ms, 3251ms total)
T7A8C 270:064 JLINK_GetHardwareVersion()  returns 0x16760 (0000ms, 3251ms total)
T7A8C 270:064 JLINK_GetDLLVersion()  returns 64400 (0000ms, 3251ms total)
T7A8C 270:064 JLINK_GetFirmwareString(...) (0000ms, 3251ms total)
T7A8C 270:078 JLINK_GetDLLVersion()  returns 64400 (0000ms, 3251ms total)
T7A8C 270:078 JLINK_GetCompileDateTime() (0000ms, 3251ms total)
T7A8C 270:086 JLINK_GetFirmwareString(...) (0000ms, 3251ms total)
T7A8C 270:090 JLINK_GetHardwareVersion()  returns 0x16760 (0000ms, 3251ms total)
T7A8C 270:109 JLINK_TIF_Select(JLINKARM_TIF_SWD)  returns 0x00 (0001ms, 3252ms total)
T7A8C 270:110 JLINK_SetSpeed(5000) (0000ms, 3252ms total)
T7A8C 270:110 JLINK_GetId() >0x10B TIF>Found SW-DP with ID 0x2BA01477 >0x0D TIF> >0x28 TIF> >0x0D TIF> >0x28 TIF> >0x0D TIF> >0x28 TIF> >0x0D TIF> >0x28 TIF> >0x0D TIF> >0x21 TIF> >0x0D TIF> >0x28 TIF> >0x0D TIF> >0x28 TIF> >0x0D TIF> >0x28 TIF> >0x0D TIF> >0x21 TIF> >0x0D TIF> >0x21 TIF> >0x0D TIF> >0x28 TIF> >0x0D TIF> >0x21 TIF> >0x0D TIF> >0x21 TIF> >0x0D TIF> >0x28 TIF> >0x0D TIF> >0x28 TIF> >0x0D TIF> >0x28 TIF> >0x0D TIF> >0x21 TIF> >0x0D TIF> >0x21 TIF> >0x0D TIF> >0x28 TIF> >0x0D TIF> >0x28 TIF>
 >0x0D TIF> >0x28 TIF> >0x0D TIF> >0x21 TIF> >0x0D TIF> >0x21 TIF> >0x0D TIF> >0x28 TIF> >0x0D TIF> >0x21 TIF> >0x0D TIF> >0x21 TIF> >0x0D TIF> >0x28 TIF> >0x0D TIF> >0x21 TIF> >0x0D TIF> >0x21 TIF> >0x0D TIF> >0x28 TIF> >0x0D TIF> >0x21 TIF> >0x0D TIF> >0x21 TIF> >0x0D TIF> >0x28 TIF> >0x0D TIF> >0x21 TIF> >0x0D TIF> >0x21 TIF> >0x0D TIF> >0x28 TIF> >0x0D TIF> >0x21 TIF> >0x0D TIF> >0x21 TIF> >0x0D TIF> >0x28 TIF> >0x0D TIF> >0x21 TIF> >0x0D TIF> >0x21 TIF> >0x10B TIF>Found SW-DP with ID 0x2BA01477
 >0x0D TIF> >0x28 TIF> >0x0D TIF> >0x28 TIF> >0x0D TIF> >0x28 TIF> >0x0D TIF> >0x28 TIF> >0x0D TIF> >0x21 TIF> >0x0D TIF> >0x28 TIF>Scanning AP map to find all available APs >0x0D TIF> >0x28 TIF> >0x0D TIF> >0x21 TIF> >0x0D TIF> >0x21 TIF> >0x0D TIF> >0x28 TIF> >0x0D TIF> >0x21 TIF> >0x0D TIF> >0x21 TIF>AP[1]: Stopped AP scan as end of AP map has been reachedAP[0]: AHB-AP (IDR: 0x24770011)Iterating through AP map to find AHB-AP to use >0x42 TIF> >0x28 TIF> >0x0D TIF> >0x28 TIF> >0x0D TIF> >0x21 TIF>
 >0x0D TIF> >0x21 TIF> >0x42 TIF> >0x28 TIF> >0x0D TIF> >0x28 TIF> >0x0D TIF> >0x28 TIF> >0x0D TIF> >0x21 TIF> >0x0D TIF> >0x21 TIF>AP[0]: Core foundAP[0]: AHB-AP ROM base: 0xE00FF000 >0x0D TIF> >0x28 TIF> >0x0D TIF> >0x28 TIF> >0x0D TIF> >0x28 TIF> >0x0D TIF> >0x21 TIF> >0x0D TIF> >0x21 TIF>CPUID register: 0x412FC230. Implementer code: 0x41 (ARM)Found Cortex-M3 r2p0, Little endian. -- Max. mem block: 0x00010FF0 -- CPU_ReadMem(4 bytes @ 0xE000EDF0) -- CPU_WriteMem(4 bytes @ 0xE000EDF0)
 -- CPU_ReadMem(4 bytes @ 0xE0002000)FPUnit: 6 code (BP) slots and 2 literal slots -- CPU_ReadMem(4 bytes @ 0xE000EDFC) -- CPU_WriteMem(4 bytes @ 0xE000EDFC) -- CPU_ReadMem(4 bytes @ 0xE0001000) -- CPU_WriteMem(4 bytes @ 0xE0001000) -- CPU_ReadMem(4 bytes @ 0xE000ED88) -- CPU_WriteMem(4 bytes @ 0xE000ED88) -- CPU_ReadMem(4 bytes @ 0xE000ED88) -- CPU_WriteMem(4 bytes @ 0xE000ED88)CoreSight components:ROMTbl[0] @ E00FF000 -- CPU_ReadMem(16 bytes @ 0xE00FF000) -- CPU_ReadMem(16 bytes @ 0xE000EFF0)
 -- CPU_ReadMem(16 bytes @ 0xE000EFE0)ROMTbl[0][0]: E000E000, CID: B105E00D, PID: 002BB000 SCS -- CPU_ReadMem(16 bytes @ 0xE0001FF0) -- CPU_ReadMem(16 bytes @ 0xE0001FE0)ROMTbl[0][1]: E0001000, CID: B105E00D, PID: 002BB002 DWT -- CPU_ReadMem(16 bytes @ 0xE0002FF0) -- CPU_ReadMem(16 bytes @ 0xE0002FE0)ROMTbl[0][2]: E0002000, CID: B105E00D, PID: 002BB003 FPB -- CPU_ReadMem(16 bytes @ 0xE0000FF0) -- CPU_ReadMem(16 bytes @ 0xE0000FE0)ROMTbl[0][3]: E0000000, CID: B105E00D, PID: 002BB001 ITM
 -- CPU_ReadMem(16 bytes @ 0xE00FF010) -- CPU_ReadMem(16 bytes @ 0xE0040FF0) -- CPU_ReadMem(16 bytes @ 0xE0040FE0)ROMTbl[0][4]: E0040000, CID: B105900D, PID: 002BB923 TPIU-Lite -- CPU_ReadMem(16 bytes @ 0xE0041FF0) -- CPU_ReadMem(16 bytes @ 0xE0041FE0)ROMTbl[0][5]: E0041000, CID: B105900D, PID: 002BB924 ETM-M3 >0x0D TIF> >0x21 TIF>  returns 0x2BA01477 (0230ms, 3482ms total)
T7A8C 270:340 JLINK_GetDLLVersion()  returns 64400 (0000ms, 3482ms total)
T7A8C 270:340 JLINK_CORE_GetFound()  returns 0x30000FF (0000ms, 3482ms total)
T7A8C 270:340 JLINK_GetDebugInfo(0x100 = JLINKARM_ROM_TABLE_ADDR_INDEX) -- Value=0xE00FF000  returns 0x00 (0000ms, 3482ms total)
T7A8C 270:344 JLINK_GetDebugInfo(0x100 = JLINKARM_ROM_TABLE_ADDR_INDEX) -- Value=0xE00FF000  returns 0x00 (0000ms, 3482ms total)
T7A8C 270:344 JLINK_GetDebugInfo(0x101 = JLINKARM_DEBUG_INFO_ETM_ADDR_INDEX) -- Value=0xE0041000  returns 0x00 (0000ms, 3482ms total)
T7A8C 270:344 JLINK_ReadMemEx(0xE0041FD0, 0x0020 Bytes, ..., Flags = 0x02000004) -- CPU_ReadMem(32 bytes @ 0xE0041FD0) - Data: 04 00 00 00 00 00 00 00 00 00 00 00 00 00 00 00 ...  returns 0x20 (0000ms, 3482ms total)
T7A8C 270:344 JLINK_GetDebugInfo(0x102 = JLINKARM_DEBUG_INFO_MTB_ADDR_INDEX) -- Value=0x00000000  returns 0x00 (0000ms, 3482ms total)
T7A8C 270:344 JLINK_GetDebugInfo(0x103 = JLINKARM_DEBUG_INFO_TPIU_ADDR_INDEX) -- Value=0xE0040000  returns 0x00 (0000ms, 3482ms total)
T7A8C 270:344 JLINK_GetDebugInfo(0x104 = JLINKARM_DEBUG_INFO_ITM_ADDR_INDEX) -- Value=0xE0000000  returns 0x00 (0000ms, 3482ms total)
T7A8C 270:344 JLINK_GetDebugInfo(0x105 = JLINKARM_DEBUG_INFO_DWT_ADDR_INDEX) -- Value=0xE0001000  returns 0x00 (0001ms, 3483ms total)
T7A8C 270:345 JLINK_GetDebugInfo(0x106 = JLINKARM_DEBUG_INFO_FPB_ADDR_INDEX) -- Value=0xE0002000  returns 0x00 (0000ms, 3483ms total)
T7A8C 270:345 JLINK_GetDebugInfo(0x107 = JLINKARM_DEBUG_INFO_NVIC_ADDR_INDEX) -- Value=0xE000E000  returns 0x00 (0000ms, 3483ms total)
T7A8C 270:345 JLINK_GetDebugInfo(0x10C = JLINKARM_DEBUG_INFO_DBG_ADDR_INDEX) -- Value=0xE000EDF0  returns 0x00 (0000ms, 3483ms total)
T7A8C 270:345 JLINK_GetDebugInfo(0x01 = Unknown) -- Value=0x00000000  returns 0x00 (0000ms, 3483ms total)
T7A8C 270:345 JLINK_ReadMemU32(0xE000ED00, 0x0001 Items, ...) -- CPU_ReadMem(4 bytes @ 0xE000ED00) - Data: 30 C2 2F 41  returns 1 (0000ms, 3483ms total)
T7A8C 270:345 JLINK_GetDebugInfo(0x10F = JLINKARM_DEBUG_INFO_HAS_CORTEX_M_SECURITY_EXT_INDEX) -- Value=0x00000000  returns 0x00 (0000ms, 3483ms total)
T7A8C 270:345 JLINK_SetResetType(JLINKARM_CM3_RESET_TYPE_NORMAL)  returns JLINKARM_CM3_RESET_TYPE_NORMAL (0000ms, 3483ms total)
T7A8C 270:345 JLINK_Reset() -- CPU is running -- CPU_WriteMem(4 bytes @ 0xE000EDF0) -- CPU is running -- CPU_WriteMem(4 bytes @ 0xE000EDFC)Reset: Halt core after reset via DEMCR.VC_CORERESET. >0x35 TIF>Reset: Reset device via AIRCR.SYSRESETREQ. -- CPU is running -- CPU_WriteMem(4 bytes @ 0xE000ED0C) >0x0D TIF> >0x28 TIF> -- CPU_ReadMem(4 bytes @ 0xE000EDF0) -- CPU_ReadMem(4 bytes @ 0xE000EDF0) -- CPU is running -- CPU_WriteMem(4 bytes @ 0xE000EDF0) -- CPU is running -- CPU_WriteMem(4 bytes @ 0xE000EDFC)
 -- CPU_ReadMem(4 bytes @ 0xE000EDF0) -- CPU_WriteMem(4 bytes @ 0xE0002000) -- CPU_ReadMem(4 bytes @ 0xE000EDFC) -- CPU_ReadMem(4 bytes @ 0xE0001000) (0076ms, 3559ms total)
T7A8C 270:421 JLINK_Halt()  returns 0x00 (0000ms, 3559ms total)
T7A8C 270:421 JLINK_ReadMemU32(0xE000EDF0, 0x0001 Items, ...) -- CPU_ReadMem(4 bytes @ 0xE000EDF0) - Data: 03 00 03 00  returns 1 (0000ms, 3559ms total)
T7A8C 270:421 JLINK_WriteU32(0xE000EDF0, 0xA05F0003) -- CPU_WriteMem(4 bytes @ 0xE000EDF0)  returns 0 (0000ms, 3559ms total)
T7A8C 270:421 JLINK_WriteU32(0xE000EDFC, 0x01000000) -- CPU_WriteMem(4 bytes @ 0xE000EDFC)  returns 0 (0001ms, 3560ms total)
T7A8C 270:441 JLINK_GetHWStatus(...)  returns 0x00 (0000ms, 3560ms total)
T7A8C 270:454 JLINK_GetNumBPUnits(Type = 0xFFFFFF00)  returns 0x06 (0000ms, 3560ms total)
T7A8C 270:454 JLINK_GetNumBPUnits(Type = 0xF0)  returns 0x2000 (0000ms, 3560ms total)
T7A8C 270:454 JLINK_GetNumWPUnits()  returns 0x04 (0000ms, 3560ms total)
T7A8C 270:468 JLINK_GetSpeed()  returns 0xFA0 (0000ms, 3560ms total)
T7A8C 270:479 JLINK_ReadMemU32(0xE000E004, 0x0001 Items, ...) -- CPU_ReadMem(4 bytes @ 0xE000E004) - Data: 01 00 00 00  returns 1 (0000ms, 3560ms total)
T7A8C 270:479 JLINK_ReadMemU32(0xE000E004, 0x0001 Items, ...) -- CPU_ReadMem(4 bytes @ 0xE000E004) - Data: 01 00 00 00  returns 1 (0001ms, 3561ms total)
T7A8C 270:480 JLINK_WriteMemEx(0xE0001000, 0x001C Bytes, ..., Flags = 0x02000004) - Data: 01 00 00 00 00 00 00 00 00 00 00 00 00 00 00 00 ... -- CPU_WriteMem(28 bytes @ 0xE0001000)  returns 0x1C (0000ms, 3561ms total)
T7A8C 270:480 JLINK_Halt()  returns 0x00 (0000ms, 3561ms total)
T7A8C 270:480 JLINK_IsHalted()  returns TRUE (0000ms, 3561ms total)
T7A8C 270:483 JLINK_WriteMem(0x20000000, 0x0218 Bytes, ...) - Data: 00 BE 0A E0 0D 78 2D 06 68 40 08 24 40 00 00 D3 ... -- CPU_WriteMem(536 bytes @ 0x20000000)  returns 0x218 (0003ms, 3564ms total)
T7A8C 270:486 JLINK_WriteReg(R0, 0x08000000)  returns 0x00 (0000ms, 3564ms total)
T7A8C 270:486 JLINK_WriteReg(R1, 0x00B71B00)  returns 0x00 (0000ms, 3564ms total)
T7A8C 270:486 JLINK_WriteReg(R2, 0x00000001)  returns 0x00 (0000ms, 3564ms total)
T7A8C 270:486 JLINK_WriteReg(R3, 0x00000000)  returns 0x00 (0000ms, 3564ms total)
T7A8C 270:486 JLINK_WriteReg(R4, 0x00000000)  returns 0x00 (0000ms, 3564ms total)
T7A8C 270:486 JLINK_WriteReg(R5, 0x00000000)  returns 0x00 (0000ms, 3564ms total)
T7A8C 270:486 JLINK_WriteReg(R6, 0x00000000)  returns 0x00 (0000ms, 3564ms total)
T7A8C 270:486 JLINK_WriteReg(R7, 0x00000000)  returns 0x00 (0000ms, 3564ms total)
T7A8C 270:486 JLINK_WriteReg(R8, 0x00000000)  returns 0x00 (0000ms, 3564ms total)
T7A8C 270:486 JLINK_WriteReg(R9, 0x20000214)  returns 0x00 (0000ms, 3564ms total)
T7A8C 270:486 JLINK_WriteReg(R10, 0x00000000)  returns 0x00 (0000ms, 3564ms total)
T7A8C 270:486 JLINK_WriteReg(R11, 0x00000000)  returns 0x00 (0000ms, 3564ms total)
T7A8C 270:486 JLINK_WriteReg(R12, 0x00000000)  returns 0x00 (0000ms, 3564ms total)
T7A8C 270:486 JLINK_WriteReg(R13 (SP), 0x20001000)  returns 0x00 (0000ms, 3564ms total)
T7A8C 270:486 JLINK_WriteReg(R14, 0x20000001)  returns 0x00 (0000ms, 3564ms total)
T7A8C 270:486 JLINK_WriteReg(R15 (PC), 0x20000020)  returns 0x00 (0000ms, 3564ms total)
T7A8C 270:486 JLINK_WriteReg(XPSR, 0x01000000)  returns 0x00 (0000ms, 3564ms total)
T7A8C 270:486 JLINK_WriteReg(MSP, 0x20001000)  returns 0x00 (0000ms, 3564ms total)
T7A8C 270:486 JLINK_WriteReg(PSP, 0x20001000)  returns 0x00 (0000ms, 3564ms total)
T7A8C 270:486 JLINK_WriteReg(CFBP, 0x00000000)  returns 0x00 (0001ms, 3565ms total)
T7A8C 270:487 JLINK_SetBPEx(Addr = 0x20000000, Type = 0xFFFFFFF2) -- CPU_ReadMem(2 bytes @ 0x20000000)  returns 0x00000001 (0000ms, 3565ms total)
T7A8C 270:487 JLINK_Go() -- CPU_WriteMem(2 bytes @ 0x20000000) -- CPU_ReadMem(4 bytes @ 0xE0001000) -- CPU_WriteMem(4 bytes @ 0xE0002008) -- CPU_WriteMem(4 bytes @ 0xE000200C) -- CPU_WriteMem(4 bytes @ 0xE0002010) -- CPU_WriteMem(4 bytes @ 0xE0002014) -- CPU_WriteMem(4 bytes @ 0xE0002018) -- CPU_WriteMem(4 bytes @ 0xE000201C) -- CPU_WriteMem(4 bytes @ 0xE0001004) (0004ms, 3569ms total)
T7A8C 270:491 JLINK_IsHalted() -- CPU_ReadMem(2 bytes @ 0x20000000)  returns TRUE (0002ms, 3571ms total)
T7A8C 270:493 JLINK_ReadReg(R15 (PC))  returns 0x20000000 (0000ms, 3569ms total)
T7A8C 270:493 JLINK_ClrBPEx(BPHandle = 0x00000001)  returns 0x00 (0000ms, 3569ms total)
T7A8C 270:493 JLINK_ReadReg(R0)  returns 0x00000000 (0000ms, 3569ms total)
T7A8C 270:494 JLINK_WriteReg(R0, 0x08000000)  returns 0x00 (0000ms, 3569ms total)
T7A8C 270:494 JLINK_WriteReg(R1, 0x00000100)  returns 0x00 (0000ms, 3569ms total)
T7A8C 270:494 JLINK_WriteReg(R2, 0x00000000)  returns 0x00 (0000ms, 3569ms total)
T7A8C 270:494 JLINK_WriteReg(R3, 0x00000000)  returns 0x00 (0000ms, 3569ms total)
T7A8C 270:494 JLINK_WriteReg(R4, 0x00000000)  returns 0x00 (0000ms, 3569ms total)
T7A8C 270:494 JLINK_WriteReg(R5, 0x00000000)  returns 0x00 (0000ms, 3569ms total)
T7A8C 270:494 JLINK_WriteReg(R6, 0x00000000)  returns 0x00 (0000ms, 3569ms total)
T7A8C 270:494 JLINK_WriteReg(R7, 0x00000000)  returns 0x00 (0000ms, 3569ms total)
T7A8C 270:494 JLINK_WriteReg(R8, 0x00000000)  returns 0x00 (0000ms, 3569ms total)
T7A8C 270:494 JLINK_WriteReg(R9, 0x20000214)  returns 0x00 (0000ms, 3569ms total)
T7A8C 270:494 JLINK_WriteReg(R10, 0x00000000)  returns 0x00 (0000ms, 3569ms total)
T7A8C 270:494 JLINK_WriteReg(R11, 0x00000000)  returns 0x00 (0000ms, 3569ms total)
T7A8C 270:494 JLINK_WriteReg(R12, 0x00000000)  returns 0x00 (0000ms, 3569ms total)
T7A8C 270:494 JLINK_WriteReg(R13 (SP), 0x20001000)  returns 0x00 (0000ms, 3569ms total)
T7A8C 270:494 JLINK_WriteReg(R14, 0x20000001)  returns 0x00 (0000ms, 3569ms total)
T7A8C 270:494 JLINK_WriteReg(R15 (PC), 0x200000FA)  returns 0x00 (0000ms, 3569ms total)
T7A8C 270:494 JLINK_WriteReg(XPSR, 0x01000000)  returns 0x00 (0000ms, 3569ms total)
T7A8C 270:494 JLINK_WriteReg(MSP, 0x20001000)  returns 0x00 (0000ms, 3569ms total)
T7A8C 270:494 JLINK_WriteReg(PSP, 0x20001000)  returns 0x00 (0000ms, 3569ms total)
T7A8C 270:494 JLINK_WriteReg(CFBP, 0x00000000)  returns 0x00 (0000ms, 3569ms total)
T7A8C 270:494 JLINK_SetBPEx(Addr = 0x20000000, Type = 0xFFFFFFF2)  returns 0x00000002 (0000ms, 3569ms total)
T7A8C 270:494 JLINK_Go() -- CPU_ReadMem(4 bytes @ 0xE0001000) (0003ms, 3572ms total)
T7A8C 270:497 JLINK_IsHalted() -- CPU_ReadMem(2 bytes @ 0x20000000)  returns TRUE (0002ms, 3574ms total)
T7A8C 270:499 JLINK_ReadReg(R15 (PC))  returns 0x20000000 (0000ms, 3572ms total)
T7A8C 270:499 JLINK_ClrBPEx(BPHandle = 0x00000002)  returns 0x00 (0000ms, 3572ms total)
T7A8C 270:499 JLINK_ReadReg(R0)  returns 0x00000001 (0000ms, 3572ms total)
T7A8C 270:499 JLINK_WriteReg(R0, 0x08000000)  returns 0x00 (0000ms, 3572ms total)
T7A8C 270:499 JLINK_WriteReg(R1, 0x00000100)  returns 0x00 (0000ms, 3572ms total)
T7A8C 270:499 JLINK_WriteReg(R2, 0x00000000)  returns 0x00 (0000ms, 3572ms total)
T7A8C 270:499 JLINK_WriteReg(R3, 0x00000000)  returns 0x00 (0000ms, 3572ms total)
T7A8C 270:499 JLINK_WriteReg(R4, 0x00000000)  returns 0x00 (0000ms, 3572ms total)
T7A8C 270:499 JLINK_WriteReg(R5, 0x00000000)  returns 0x00 (0000ms, 3572ms total)
T7A8C 270:499 JLINK_WriteReg(R6, 0x00000000)  returns 0x00 (0000ms, 3572ms total)
T7A8C 270:499 JLINK_WriteReg(R7, 0x00000000)  returns 0x00 (0000ms, 3572ms total)
T7A8C 270:499 JLINK_WriteReg(R8, 0x00000000)  returns 0x00 (0000ms, 3572ms total)
T7A8C 270:499 JLINK_WriteReg(R9, 0x20000214)  returns 0x00 (0001ms, 3573ms total)
T7A8C 270:500 JLINK_WriteReg(R10, 0x00000000)  returns 0x00 (0000ms, 3573ms total)
T7A8C 270:500 JLINK_WriteReg(R11, 0x00000000)  returns 0x00 (0000ms, 3573ms total)
T7A8C 270:500 JLINK_WriteReg(R12, 0x00000000)  returns 0x00 (0000ms, 3573ms total)
T7A8C 270:500 JLINK_WriteReg(R13 (SP), 0x20001000)  returns 0x00 (0000ms, 3573ms total)
T7A8C 270:500 JLINK_WriteReg(R14, 0x20000001)  returns 0x00 (0000ms, 3573ms total)
T7A8C 270:500 JLINK_WriteReg(R15 (PC), 0x200000A8)  returns 0x00 (0000ms, 3573ms total)
T7A8C 270:500 JLINK_WriteReg(XPSR, 0x01000000)  returns 0x00 (0000ms, 3573ms total)
T7A8C 270:500 JLINK_WriteReg(MSP, 0x20001000)  returns 0x00 (0000ms, 3573ms total)
T7A8C 270:500 JLINK_WriteReg(PSP, 0x20001000)  returns 0x00 (0000ms, 3573ms total)
T7A8C 270:500 JLINK_WriteReg(CFBP, 0x00000000)  returns 0x00 (0000ms, 3573ms total)
T7A8C 270:500 JLINK_SetBPEx(Addr = 0x20000000, Type = 0xFFFFFFF2)  returns 0x00000003 (0000ms, 3573ms total)
T7A8C 270:500 JLINK_Go() -- CPU_ReadMem(4 bytes @ 0xE0001000) (0002ms, 3575ms total)
T7A8C 270:502 JLINK_IsHalted()  returns FALSE (0000ms, 3575ms total)
T7A8C 270:617 JLINK_IsHalted() -- CPU_ReadMem(2 bytes @ 0x20000000)  returns TRUE (0002ms, 3577ms total)
T7A8C 270:619 JLINK_ReadReg(R15 (PC))  returns 0x20000000 (0000ms, 3575ms total)
T7A8C 270:619 JLINK_ClrBPEx(BPHandle = 0x00000003)  returns 0x00 (0000ms, 3575ms total)
T7A8C 270:619 JLINK_ReadReg(R0)  returns 0x00000000 (0000ms, 3575ms total)
T7A8C 270:620 JLINK_WriteReg(R0, 0x08000100)  returns 0x00 (0000ms, 3575ms total)
T7A8C 270:620 JLINK_WriteReg(R1, 0x00000100)  returns 0x00 (0000ms, 3575ms total)
T7A8C 270:620 JLINK_WriteReg(R2, 0x00000000)  returns 0x00 (0000ms, 3575ms total)
T7A8C 270:620 JLINK_WriteReg(R3, 0x00000000)  returns 0x00 (0000ms, 3575ms total)
T7A8C 270:620 JLINK_WriteReg(R4, 0x00000000)  returns 0x00 (0000ms, 3575ms total)
T7A8C 270:620 JLINK_WriteReg(R5, 0x00000000)  returns 0x00 (0000ms, 3575ms total)
T7A8C 270:620 JLINK_WriteReg(R6, 0x00000000)  returns 0x00 (0000ms, 3575ms total)
T7A8C 270:620 JLINK_WriteReg(R7, 0x00000000)  returns 0x00 (0000ms, 3575ms total)
T7A8C 270:620 JLINK_WriteReg(R8, 0x00000000)  returns 0x00 (0000ms, 3575ms total)
T7A8C 270:620 JLINK_WriteReg(R9, 0x20000214)  returns 0x00 (0000ms, 3575ms total)
T7A8C 270:620 JLINK_WriteReg(R10, 0x00000000)  returns 0x00 (0000ms, 3575ms total)
T7A8C 270:620 JLINK_WriteReg(R11, 0x00000000)  returns 0x00 (0000ms, 3575ms total)
T7A8C 270:620 JLINK_WriteReg(R12, 0x00000000)  returns 0x00 (0000ms, 3575ms total)
T7A8C 270:620 JLINK_WriteReg(R13 (SP), 0x20001000)  returns 0x00 (0000ms, 3575ms total)
T7A8C 270:620 JLINK_WriteReg(R14, 0x20000001)  returns 0x00 (0000ms, 3575ms total)
T7A8C 270:620 JLINK_WriteReg(R15 (PC), 0x200000FA)  returns 0x00 (0000ms, 3575ms total)
T7A8C 270:620 JLINK_WriteReg(XPSR, 0x01000000)  returns 0x00 (0000ms, 3575ms total)
T7A8C 270:620 JLINK_WriteReg(MSP, 0x20001000)  returns 0x00 (0000ms, 3575ms total)
T7A8C 270:620 JLINK_WriteReg(PSP, 0x20001000)  returns 0x00 (0000ms, 3575ms total)
T7A8C 270:620 JLINK_WriteReg(CFBP, 0x00000000)  returns 0x00 (0000ms, 3575ms total)
T7A8C 270:620 JLINK_SetBPEx(Addr = 0x20000000, Type = 0xFFFFFFF2)  returns 0x00000004 (0000ms, 3575ms total)
T7A8C 270:620 JLINK_Go() -- CPU_ReadMem(4 bytes @ 0xE0001000) (0003ms, 3578ms total)
T7A8C 270:623 JLINK_IsHalted() -- CPU_ReadMem(2 bytes @ 0x20000000)  returns TRUE (0002ms, 3580ms total)
T7A8C 270:625 JLINK_ReadReg(R15 (PC))  returns 0x20000000 (0000ms, 3578ms total)
T7A8C 270:625 JLINK_ClrBPEx(BPHandle = 0x00000004)  returns 0x00 (0000ms, 3578ms total)
T7A8C 270:625 JLINK_ReadReg(R0)  returns 0x00000001 (0000ms, 3578ms total)
T7A8C 270:625 JLINK_WriteReg(R0, 0x08000100)  returns 0x00 (0000ms, 3578ms total)
T7A8C 270:625 JLINK_WriteReg(R1, 0x00000100)  returns 0x00 (0000ms, 3578ms total)
T7A8C 270:625 JLINK_WriteReg(R2, 0x00000000)  returns 0x00 (0000ms, 3578ms total)
T7A8C 270:625 JLINK_WriteReg(R3, 0x00000000)  returns 0x00 (0000ms, 3578ms total)
T7A8C 270:625 JLINK_WriteReg(R4, 0x00000000)  returns 0x00 (0000ms, 3578ms total)
T7A8C 270:625 JLINK_WriteReg(R5, 0x00000000)  returns 0x00 (0000ms, 3578ms total)
T7A8C 270:625 JLINK_WriteReg(R6, 0x00000000)  returns 0x00 (0000ms, 3578ms total)
T7A8C 270:625 JLINK_WriteReg(R7, 0x00000000)  returns 0x00 (0000ms, 3578ms total)
T7A8C 270:625 JLINK_WriteReg(R8, 0x00000000)  returns 0x00 (0000ms, 3578ms total)
T7A8C 270:625 JLINK_WriteReg(R9, 0x20000214)  returns 0x00 (0000ms, 3578ms total)
T7A8C 270:625 JLINK_WriteReg(R10, 0x00000000)  returns 0x00 (0000ms, 3578ms total)
T7A8C 270:625 JLINK_WriteReg(R11, 0x00000000)  returns 0x00 (0001ms, 3579ms total)
T7A8C 270:626 JLINK_WriteReg(R12, 0x00000000)  returns 0x00 (0000ms, 3579ms total)
T7A8C 270:626 JLINK_WriteReg(R13 (SP), 0x20001000)  returns 0x00 (0000ms, 3579ms total)
T7A8C 270:626 JLINK_WriteReg(R14, 0x20000001)  returns 0x00 (0000ms, 3579ms total)
T7A8C 270:626 JLINK_WriteReg(R15 (PC), 0x200000A8)  returns 0x00 (0000ms, 3579ms total)
T7A8C 270:626 JLINK_WriteReg(XPSR, 0x01000000)  returns 0x00 (0000ms, 3579ms total)
T7A8C 270:626 JLINK_WriteReg(MSP, 0x20001000)  returns 0x00 (0000ms, 3579ms total)
T7A8C 270:626 JLINK_WriteReg(PSP, 0x20001000)  returns 0x00 (0000ms, 3579ms total)
T7A8C 270:626 JLINK_WriteReg(CFBP, 0x00000000)  returns 0x00 (0000ms, 3579ms total)
T7A8C 270:626 JLINK_SetBPEx(Addr = 0x20000000, Type = 0xFFFFFFF2)  returns 0x00000005 (0000ms, 3579ms total)
T7A8C 270:626 JLINK_Go() -- CPU_ReadMem(4 bytes @ 0xE0001000) (0002ms, 3581ms total)
T7A8C 270:628 JLINK_IsHalted()  returns FALSE (0000ms, 3581ms total)
T7A8C 270:987 JLINK_IsHalted() -- CPU_ReadMem(2 bytes @ 0x20000000)  returns TRUE (0002ms, 3583ms total)
T7A8C 270:989 JLINK_ReadReg(R15 (PC))  returns 0x20000000 (0000ms, 3581ms total)
T7A8C 270:989 JLINK_ClrBPEx(BPHandle = 0x00000005)  returns 0x00 (0000ms, 3581ms total)
T7A8C 270:989 JLINK_ReadReg(R0)  returns 0x00000000 (0000ms, 3581ms total)
T7A8C 270:990 JLINK_WriteReg(R0, 0x08000200)  returns 0x00 (0000ms, 3581ms total)
T7A8C 270:990 JLINK_WriteReg(R1, 0x00000100)  returns 0x00 (0000ms, 3581ms total)
T7A8C 270:990 JLINK_WriteReg(R2, 0x00000000)  returns 0x00 (0000ms, 3581ms total)
T7A8C 270:990 JLINK_WriteReg(R3, 0x00000000)  returns 0x00 (0000ms, 3581ms total)
T7A8C 270:990 JLINK_WriteReg(R4, 0x00000000)  returns 0x00 (0000ms, 3581ms total)
T7A8C 270:990 JLINK_WriteReg(R5, 0x00000000)  returns 0x00 (0000ms, 3581ms total)
T7A8C 270:990 JLINK_WriteReg(R6, 0x00000000)  returns 0x00 (0000ms, 3581ms total)
T7A8C 270:990 JLINK_WriteReg(R7, 0x00000000)  returns 0x00 (0000ms, 3581ms total)
T7A8C 270:990 JLINK_WriteReg(R8, 0x00000000)  returns 0x00 (0000ms, 3581ms total)
T7A8C 270:990 JLINK_WriteReg(R9, 0x20000214)  returns 0x00 (0000ms, 3581ms total)
T7A8C 270:990 JLINK_WriteReg(R10, 0x00000000)  returns 0x00 (0000ms, 3581ms total)
T7A8C 270:990 JLINK_WriteReg(R11, 0x00000000)  returns 0x00 (0000ms, 3581ms total)
T7A8C 270:990 JLINK_WriteReg(R12, 0x00000000)  returns 0x00 (0000ms, 3581ms total)
T7A8C 270:990 JLINK_WriteReg(R13 (SP), 0x20001000)  returns 0x00 (0000ms, 3581ms total)
T7A8C 270:990 JLINK_WriteReg(R14, 0x20000001)  returns 0x00 (0000ms, 3581ms total)
T7A8C 270:990 JLINK_WriteReg(R15 (PC), 0x200000FA)  returns 0x00 (0000ms, 3581ms total)
T7A8C 270:990 JLINK_WriteReg(XPSR, 0x01000000)  returns 0x00 (0000ms, 3581ms total)
T7A8C 270:990 JLINK_WriteReg(MSP, 0x20001000)  returns 0x00 (0000ms, 3581ms total)
T7A8C 270:990 JLINK_WriteReg(PSP, 0x20001000)  returns 0x00 (0000ms, 3581ms total)
T7A8C 270:990 JLINK_WriteReg(CFBP, 0x00000000)  returns 0x00 (0000ms, 3581ms total)
T7A8C 270:990 JLINK_SetBPEx(Addr = 0x20000000, Type = 0xFFFFFFF2)  returns 0x00000006 (0000ms, 3581ms total)
T7A8C 270:990 JLINK_Go() -- CPU_ReadMem(4 bytes @ 0xE0001000) (0003ms, 3584ms total)
T7A8C 270:993 JLINK_IsHalted() -- CPU_ReadMem(2 bytes @ 0x20000000)  returns TRUE (0002ms, 3586ms total)
T7A8C 270:995 JLINK_ReadReg(R15 (PC))  returns 0x20000000 (0000ms, 3584ms total)
T7A8C 270:995 JLINK_ClrBPEx(BPHandle = 0x00000006)  returns 0x00 (0000ms, 3584ms total)
T7A8C 270:995 JLINK_ReadReg(R0)  returns 0x00000001 (0000ms, 3584ms total)
T7A8C 270:995 JLINK_WriteReg(R0, 0x08000200)  returns 0x00 (0000ms, 3584ms total)
T7A8C 270:995 JLINK_WriteReg(R1, 0x00000100)  returns 0x00 (0000ms, 3584ms total)
T7A8C 270:995 JLINK_WriteReg(R2, 0x00000000)  returns 0x00 (0000ms, 3584ms total)
T7A8C 270:995 JLINK_WriteReg(R3, 0x00000000)  returns 0x00 (0000ms, 3584ms total)
T7A8C 270:995 JLINK_WriteReg(R4, 0x00000000)  returns 0x00 (0000ms, 3584ms total)
T7A8C 270:995 JLINK_WriteReg(R5, 0x00000000)  returns 0x00 (0000ms, 3584ms total)
T7A8C 270:995 JLINK_WriteReg(R6, 0x00000000)  returns 0x00 (0000ms, 3584ms total)
T7A8C 270:995 JLINK_WriteReg(R7, 0x00000000)  returns 0x00 (0000ms, 3584ms total)
T7A8C 270:995 JLINK_WriteReg(R8, 0x00000000)  returns 0x00 (0000ms, 3584ms total)
T7A8C 270:995 JLINK_WriteReg(R9, 0x20000214)  returns 0x00 (0000ms, 3584ms total)
T7A8C 270:995 JLINK_WriteReg(R10, 0x00000000)  returns 0x00 (0000ms, 3584ms total)
T7A8C 270:995 JLINK_WriteReg(R11, 0x00000000)  returns 0x00 (0000ms, 3584ms total)
T7A8C 270:995 JLINK_WriteReg(R12, 0x00000000)  returns 0x00 (0000ms, 3584ms total)
T7A8C 270:995 JLINK_WriteReg(R13 (SP), 0x20001000)  returns 0x00 (0001ms, 3585ms total)
T7A8C 270:996 JLINK_WriteReg(R14, 0x20000001)  returns 0x00 (0000ms, 3585ms total)
T7A8C 270:996 JLINK_WriteReg(R15 (PC), 0x200000A8)  returns 0x00 (0000ms, 3585ms total)
T7A8C 270:996 JLINK_WriteReg(XPSR, 0x01000000)  returns 0x00 (0000ms, 3585ms total)
T7A8C 270:996 JLINK_WriteReg(MSP, 0x20001000)  returns 0x00 (0000ms, 3585ms total)
T7A8C 270:996 JLINK_WriteReg(PSP, 0x20001000)  returns 0x00 (0000ms, 3585ms total)
T7A8C 270:996 JLINK_WriteReg(CFBP, 0x00000000)  returns 0x00 (0000ms, 3585ms total)
T7A8C 270:996 JLINK_SetBPEx(Addr = 0x20000000, Type = 0xFFFFFFF2)  returns 0x00000007 (0000ms, 3585ms total)
T7A8C 270:996 JLINK_Go() -- CPU_ReadMem(4 bytes @ 0xE0001000) (0002ms, 3587ms total)
T7A8C 270:998 JLINK_IsHalted()  returns FALSE (0000ms, 3587ms total)
T7A8C 271:029 JLINK_IsHalted() -- CPU_ReadMem(2 bytes @ 0x20000000)  returns TRUE (0002ms, 3589ms total)
T7A8C 271:031 JLINK_ReadReg(R15 (PC))  returns 0x20000000 (0000ms, 3587ms total)
T7A8C 271:031 JLINK_ClrBPEx(BPHandle = 0x00000007)  returns 0x00 (0000ms, 3587ms total)
T7A8C 271:031 JLINK_ReadReg(R0)  returns 0x00000000 (0000ms, 3587ms total)
T7A8C 271:031 JLINK_WriteReg(R0, 0x08000300)  returns 0x00 (0001ms, 3588ms total)
T7A8C 271:032 JLINK_WriteReg(R1, 0x00000100)  returns 0x00 (0000ms, 3588ms total)
T7A8C 271:032 JLINK_WriteReg(R2, 0x00000000)  returns 0x00 (0000ms, 3588ms total)
T7A8C 271:032 JLINK_WriteReg(R3, 0x00000000)  returns 0x00 (0000ms, 3588ms total)
T7A8C 271:032 JLINK_WriteReg(R4, 0x00000000)  returns 0x00 (0000ms, 3588ms total)
T7A8C 271:032 JLINK_WriteReg(R5, 0x00000000)  returns 0x00 (0000ms, 3588ms total)
T7A8C 271:032 JLINK_WriteReg(R6, 0x00000000)  returns 0x00 (0000ms, 3588ms total)
T7A8C 271:032 JLINK_WriteReg(R7, 0x00000000)  returns 0x00 (0000ms, 3588ms total)
T7A8C 271:032 JLINK_WriteReg(R8, 0x00000000)  returns 0x00 (0000ms, 3588ms total)
T7A8C 271:032 JLINK_WriteReg(R9, 0x20000214)  returns 0x00 (0000ms, 3588ms total)
T7A8C 271:032 JLINK_WriteReg(R10, 0x00000000)  returns 0x00 (0000ms, 3588ms total)
T7A8C 271:032 JLINK_WriteReg(R11, 0x00000000)  returns 0x00 (0000ms, 3588ms total)
T7A8C 271:032 JLINK_WriteReg(R12, 0x00000000)  returns 0x00 (0000ms, 3588ms total)
T7A8C 271:032 JLINK_WriteReg(R13 (SP), 0x20001000)  returns 0x00 (0000ms, 3588ms total)
T7A8C 271:032 JLINK_WriteReg(R14, 0x20000001)  returns 0x00 (0000ms, 3588ms total)
T7A8C 271:032 JLINK_WriteReg(R15 (PC), 0x200000FA)  returns 0x00 (0000ms, 3588ms total)
T7A8C 271:032 JLINK_WriteReg(XPSR, 0x01000000)  returns 0x00 (0000ms, 3588ms total)
T7A8C 271:032 JLINK_WriteReg(MSP, 0x20001000)  returns 0x00 (0000ms, 3588ms total)
T7A8C 271:032 JLINK_WriteReg(PSP, 0x20001000)  returns 0x00 (0000ms, 3588ms total)
T7A8C 271:032 JLINK_WriteReg(CFBP, 0x00000000)  returns 0x00 (0000ms, 3588ms total)
T7A8C 271:032 JLINK_SetBPEx(Addr = 0x20000000, Type = 0xFFFFFFF2)  returns 0x00000008 (0000ms, 3588ms total)
T7A8C 271:032 JLINK_Go() -- CPU_ReadMem(4 bytes @ 0xE0001000) (0002ms, 3590ms total)
T7A8C 271:034 JLINK_IsHalted() -- CPU_ReadMem(2 bytes @ 0x20000000)  returns TRUE (0003ms, 3593ms total)
T7A8C 271:037 JLINK_ReadReg(R15 (PC))  returns 0x20000000 (0000ms, 3590ms total)
T7A8C 271:037 JLINK_ClrBPEx(BPHandle = 0x00000008)  returns 0x00 (0000ms, 3590ms total)
T7A8C 271:037 JLINK_ReadReg(R0)  returns 0x00000001 (0000ms, 3590ms total)
T7A8C 271:037 JLINK_WriteReg(R0, 0x08000300)  returns 0x00 (0000ms, 3590ms total)
T7A8C 271:037 JLINK_WriteReg(R1, 0x00000100)  returns 0x00 (0000ms, 3590ms total)
T7A8C 271:037 JLINK_WriteReg(R2, 0x00000000)  returns 0x00 (0000ms, 3590ms total)
T7A8C 271:037 JLINK_WriteReg(R3, 0x00000000)  returns 0x00 (0000ms, 3590ms total)
T7A8C 271:037 JLINK_WriteReg(R4, 0x00000000)  returns 0x00 (0000ms, 3590ms total)
T7A8C 271:037 JLINK_WriteReg(R5, 0x00000000)  returns 0x00 (0000ms, 3590ms total)
T7A8C 271:037 JLINK_WriteReg(R6, 0x00000000)  returns 0x00 (0000ms, 3590ms total)
T7A8C 271:037 JLINK_WriteReg(R7, 0x00000000)  returns 0x00 (0000ms, 3590ms total)
T7A8C 271:037 JLINK_WriteReg(R8, 0x00000000)  returns 0x00 (0000ms, 3590ms total)
T7A8C 271:037 JLINK_WriteReg(R9, 0x20000214)  returns 0x00 (0000ms, 3590ms total)
T7A8C 271:037 JLINK_WriteReg(R10, 0x00000000)  returns 0x00 (0000ms, 3590ms total)
T7A8C 271:037 JLINK_WriteReg(R11, 0x00000000)  returns 0x00 (0000ms, 3590ms total)
T7A8C 271:037 JLINK_WriteReg(R12, 0x00000000)  returns 0x00 (0001ms, 3591ms total)
T7A8C 271:038 JLINK_WriteReg(R13 (SP), 0x20001000)  returns 0x00 (0000ms, 3591ms total)
T7A8C 271:038 JLINK_WriteReg(R14, 0x20000001)  returns 0x00 (0000ms, 3591ms total)
T7A8C 271:038 JLINK_WriteReg(R15 (PC), 0x200000A8)  returns 0x00 (0000ms, 3591ms total)
T7A8C 271:038 JLINK_WriteReg(XPSR, 0x01000000)  returns 0x00 (0000ms, 3591ms total)
T7A8C 271:038 JLINK_WriteReg(MSP, 0x20001000)  returns 0x00 (0000ms, 3591ms total)
T7A8C 271:038 JLINK_WriteReg(PSP, 0x20001000)  returns 0x00 (0000ms, 3591ms total)
T7A8C 271:038 JLINK_WriteReg(CFBP, 0x00000000)  returns 0x00 (0000ms, 3591ms total)
T7A8C 271:038 JLINK_SetBPEx(Addr = 0x20000000, Type = 0xFFFFFFF2)  returns 0x00000009 (0000ms, 3591ms total)
T7A8C 271:038 JLINK_Go() -- CPU_ReadMem(4 bytes @ 0xE0001000) (0002ms, 3593ms total)
T7A8C 271:040 JLINK_IsHalted()  returns FALSE (0000ms, 3593ms total)
T7A8C 271:044 JLINK_IsHalted() -- CPU_ReadMem(2 bytes @ 0x20000000)  returns TRUE (0002ms, 3595ms total)
T7A8C 271:046 JLINK_ReadReg(R15 (PC))  returns 0x20000000 (0000ms, 3593ms total)
T7A8C 271:046 JLINK_ClrBPEx(BPHandle = 0x00000009)  returns 0x00 (0001ms, 3594ms total)
T7A8C 271:047 JLINK_ReadReg(R0)  returns 0x00000000 (0000ms, 3594ms total)
T7A8C 271:048 JLINK_WriteReg(R0, 0x08000400)  returns 0x00 (0000ms, 3594ms total)
T7A8C 271:048 JLINK_WriteReg(R1, 0x00000100)  returns 0x00 (0000ms, 3594ms total)
T7A8C 271:048 JLINK_WriteReg(R2, 0x00000000)  returns 0x00 (0000ms, 3594ms total)
T7A8C 271:048 JLINK_WriteReg(R3, 0x00000000)  returns 0x00 (0000ms, 3594ms total)
T7A8C 271:048 JLINK_WriteReg(R4, 0x00000000)  returns 0x00 (0000ms, 3594ms total)
T7A8C 271:048 JLINK_WriteReg(R5, 0x00000000)  returns 0x00 (0000ms, 3594ms total)
T7A8C 271:048 JLINK_WriteReg(R6, 0x00000000)  returns 0x00 (0000ms, 3594ms total)
T7A8C 271:048 JLINK_WriteReg(R7, 0x00000000)  returns 0x00 (0000ms, 3594ms total)
T7A8C 271:048 JLINK_WriteReg(R8, 0x00000000)  returns 0x00 (0000ms, 3594ms total)
T7A8C 271:048 JLINK_WriteReg(R9, 0x20000214)  returns 0x00 (0000ms, 3594ms total)
T7A8C 271:048 JLINK_WriteReg(R10, 0x00000000)  returns 0x00 (0000ms, 3594ms total)
T7A8C 271:048 JLINK_WriteReg(R11, 0x00000000)  returns 0x00 (0000ms, 3594ms total)
T7A8C 271:048 JLINK_WriteReg(R12, 0x00000000)  returns 0x00 (0000ms, 3594ms total)
T7A8C 271:048 JLINK_WriteReg(R13 (SP), 0x20001000)  returns 0x00 (0000ms, 3594ms total)
T7A8C 271:048 JLINK_WriteReg(R14, 0x20000001)  returns 0x00 (0000ms, 3594ms total)
T7A8C 271:048 JLINK_WriteReg(R15 (PC), 0x200000FA)  returns 0x00 (0000ms, 3594ms total)
T7A8C 271:048 JLINK_WriteReg(XPSR, 0x01000000)  returns 0x00 (0000ms, 3594ms total)
T7A8C 271:048 JLINK_WriteReg(MSP, 0x20001000)  returns 0x00 (0000ms, 3594ms total)
T7A8C 271:048 JLINK_WriteReg(PSP, 0x20001000)  returns 0x00 (0000ms, 3594ms total)
T7A8C 271:048 JLINK_WriteReg(CFBP, 0x00000000)  returns 0x00 (0000ms, 3594ms total)
T7A8C 271:048 JLINK_SetBPEx(Addr = 0x20000000, Type = 0xFFFFFFF2)  returns 0x0000000A (0000ms, 3594ms total)
T7A8C 271:048 JLINK_Go() -- CPU_ReadMem(4 bytes @ 0xE0001000) (0003ms, 3597ms total)
T7A8C 271:051 JLINK_IsHalted() -- CPU_ReadMem(2 bytes @ 0x20000000)  returns TRUE (0002ms, 3599ms total)
T7A8C 271:054 JLINK_ReadReg(R15 (PC))  returns 0x20000000 (0000ms, 3597ms total)
T7A8C 271:054 JLINK_ClrBPEx(BPHandle = 0x0000000A)  returns 0x00 (0000ms, 3597ms total)
T7A8C 271:054 JLINK_ReadReg(R0)  returns 0x00000001 (0000ms, 3597ms total)
T7A8C 271:054 JLINK_WriteReg(R0, 0x08000400)  returns 0x00 (0000ms, 3597ms total)
T7A8C 271:054 JLINK_WriteReg(R1, 0x00000100)  returns 0x00 (0000ms, 3597ms total)
T7A8C 271:054 JLINK_WriteReg(R2, 0x00000000)  returns 0x00 (0000ms, 3597ms total)
T7A8C 271:054 JLINK_WriteReg(R3, 0x00000000)  returns 0x00 (0000ms, 3597ms total)
T7A8C 271:054 JLINK_WriteReg(R4, 0x00000000)  returns 0x00 (0000ms, 3597ms total)
T7A8C 271:054 JLINK_WriteReg(R5, 0x00000000)  returns 0x00 (0000ms, 3597ms total)
T7A8C 271:054 JLINK_WriteReg(R6, 0x00000000)  returns 0x00 (0000ms, 3597ms total)
T7A8C 271:054 JLINK_WriteReg(R7, 0x00000000)  returns 0x00 (0000ms, 3597ms total)
T7A8C 271:054 JLINK_WriteReg(R8, 0x00000000)  returns 0x00 (0000ms, 3597ms total)
T7A8C 271:054 JLINK_WriteReg(R9, 0x20000214)  returns 0x00 (0000ms, 3597ms total)
T7A8C 271:054 JLINK_WriteReg(R10, 0x00000000)  returns 0x00 (0000ms, 3597ms total)
T7A8C 271:054 JLINK_WriteReg(R11, 0x00000000)  returns 0x00 (0000ms, 3597ms total)
T7A8C 271:054 JLINK_WriteReg(R12, 0x00000000)  returns 0x00 (0000ms, 3597ms total)
T7A8C 271:054 JLINK_WriteReg(R13 (SP), 0x20001000)  returns 0x00 (0000ms, 3597ms total)
T7A8C 271:054 JLINK_WriteReg(R14, 0x20000001)  returns 0x00 (0000ms, 3597ms total)
T7A8C 271:054 JLINK_WriteReg(R15 (PC), 0x200000A8)  returns 0x00 (0000ms, 3597ms total)
T7A8C 271:054 JLINK_WriteReg(XPSR, 0x01000000)  returns 0x00 (0000ms, 3597ms total)
T7A8C 271:054 JLINK_WriteReg(MSP, 0x20001000)  returns 0x00 (0000ms, 3597ms total)
T7A8C 271:054 JLINK_WriteReg(PSP, 0x20001000)  returns 0x00 (0000ms, 3597ms total)
T7A8C 271:054 JLINK_WriteReg(CFBP, 0x00000000)  returns 0x00 (0000ms, 3597ms total)
T7A8C 271:054 JLINK_SetBPEx(Addr = 0x20000000, Type = 0xFFFFFFF2)  returns 0x0000000B (0000ms, 3597ms total)
T7A8C 271:054 JLINK_Go() -- CPU_ReadMem(4 bytes @ 0xE0001000) (0003ms, 3600ms total)
T7A8C 271:057 JLINK_IsHalted()  returns FALSE (0000ms, 3600ms total)
T7A8C 271:061 JLINK_IsHalted() -- CPU_ReadMem(2 bytes @ 0x20000000)  returns TRUE (0002ms, 3602ms total)
T7A8C 271:063 JLINK_ReadReg(R15 (PC))  returns 0x20000000 (0000ms, 3600ms total)
T7A8C 271:063 JLINK_ClrBPEx(BPHandle = 0x0000000B)  returns 0x00 (0000ms, 3600ms total)
T7A8C 271:063 JLINK_ReadReg(R0)  returns 0x00000000 (0000ms, 3600ms total)
T7A8C 271:063 JLINK_WriteReg(R0, 0x08000500)  returns 0x00 (0000ms, 3600ms total)
T7A8C 271:063 JLINK_WriteReg(R1, 0x00000100)  returns 0x00 (0000ms, 3600ms total)
T7A8C 271:063 JLINK_WriteReg(R2, 0x00000000)  returns 0x00 (0000ms, 3600ms total)
T7A8C 271:063 JLINK_WriteReg(R3, 0x00000000)  returns 0x00 (0001ms, 3601ms total)
T7A8C 271:064 JLINK_WriteReg(R4, 0x00000000)  returns 0x00 (0000ms, 3601ms total)
T7A8C 271:064 JLINK_WriteReg(R5, 0x00000000)  returns 0x00 (0000ms, 3601ms total)
T7A8C 271:064 JLINK_WriteReg(R6, 0x00000000)  returns 0x00 (0000ms, 3601ms total)
T7A8C 271:064 JLINK_WriteReg(R7, 0x00000000)  returns 0x00 (0000ms, 3601ms total)
T7A8C 271:064 JLINK_WriteReg(R8, 0x00000000)  returns 0x00 (0000ms, 3601ms total)
T7A8C 271:064 JLINK_WriteReg(R9, 0x20000214)  returns 0x00 (0000ms, 3601ms total)
T7A8C 271:064 JLINK_WriteReg(R10, 0x00000000)  returns 0x00 (0000ms, 3601ms total)
T7A8C 271:064 JLINK_WriteReg(R11, 0x00000000)  returns 0x00 (0000ms, 3601ms total)
T7A8C 271:064 JLINK_WriteReg(R12, 0x00000000)  returns 0x00 (0000ms, 3601ms total)
T7A8C 271:064 JLINK_WriteReg(R13 (SP), 0x20001000)  returns 0x00 (0000ms, 3601ms total)
T7A8C 271:064 JLINK_WriteReg(R14, 0x20000001)  returns 0x00 (0000ms, 3601ms total)
T7A8C 271:064 JLINK_WriteReg(R15 (PC), 0x200000FA)  returns 0x00 (0000ms, 3601ms total)
T7A8C 271:064 JLINK_WriteReg(XPSR, 0x01000000)  returns 0x00 (0000ms, 3601ms total)
T7A8C 271:064 JLINK_WriteReg(MSP, 0x20001000)  returns 0x00 (0000ms, 3601ms total)
T7A8C 271:064 JLINK_WriteReg(PSP, 0x20001000)  returns 0x00 (0000ms, 3601ms total)
T7A8C 271:064 JLINK_WriteReg(CFBP, 0x00000000)  returns 0x00 (0000ms, 3601ms total)
T7A8C 271:064 JLINK_SetBPEx(Addr = 0x20000000, Type = 0xFFFFFFF2)  returns 0x0000000C (0000ms, 3601ms total)
T7A8C 271:064 JLINK_Go() -- CPU_ReadMem(4 bytes @ 0xE0001000) (0002ms, 3603ms total)
T7A8C 271:066 JLINK_IsHalted() -- CPU_ReadMem(2 bytes @ 0x20000000)  returns TRUE (0003ms, 3606ms total)
T7A8C 271:069 JLINK_ReadReg(R15 (PC))  returns 0x20000000 (0000ms, 3603ms total)
T7A8C 271:069 JLINK_ClrBPEx(BPHandle = 0x0000000C)  returns 0x00 (0000ms, 3603ms total)
T7A8C 271:069 JLINK_ReadReg(R0)  returns 0x00000001 (0000ms, 3603ms total)
T7A8C 271:069 JLINK_WriteReg(R0, 0x08000500)  returns 0x00 (0000ms, 3603ms total)
T7A8C 271:069 JLINK_WriteReg(R1, 0x00000100)  returns 0x00 (0000ms, 3603ms total)
T7A8C 271:069 JLINK_WriteReg(R2, 0x00000000)  returns 0x00 (0000ms, 3603ms total)
T7A8C 271:069 JLINK_WriteReg(R3, 0x00000000)  returns 0x00 (0000ms, 3603ms total)
T7A8C 271:069 JLINK_WriteReg(R4, 0x00000000)  returns 0x00 (0000ms, 3603ms total)
T7A8C 271:069 JLINK_WriteReg(R5, 0x00000000)  returns 0x00 (0000ms, 3603ms total)
T7A8C 271:069 JLINK_WriteReg(R6, 0x00000000)  returns 0x00 (0000ms, 3603ms total)
T7A8C 271:069 JLINK_WriteReg(R7, 0x00000000)  returns 0x00 (0000ms, 3603ms total)
T7A8C 271:069 JLINK_WriteReg(R8, 0x00000000)  returns 0x00 (0000ms, 3603ms total)
T7A8C 271:069 JLINK_WriteReg(R9, 0x20000214)  returns 0x00 (0000ms, 3603ms total)
T7A8C 271:069 JLINK_WriteReg(R10, 0x00000000)  returns 0x00 (0000ms, 3603ms total)
T7A8C 271:069 JLINK_WriteReg(R11, 0x00000000)  returns 0x00 (0000ms, 3603ms total)
T7A8C 271:069 JLINK_WriteReg(R12, 0x00000000)  returns 0x00 (0000ms, 3603ms total)
T7A8C 271:069 JLINK_WriteReg(R13 (SP), 0x20001000)  returns 0x00 (0000ms, 3603ms total)
T7A8C 271:069 JLINK_WriteReg(R14, 0x20000001)  returns 0x00 (0000ms, 3603ms total)
T7A8C 271:069 JLINK_WriteReg(R15 (PC), 0x200000A8)  returns 0x00 (0000ms, 3603ms total)
T7A8C 271:069 JLINK_WriteReg(XPSR, 0x01000000)  returns 0x00 (0000ms, 3603ms total)
T7A8C 271:069 JLINK_WriteReg(MSP, 0x20001000)  returns 0x00 (0000ms, 3603ms total)
T7A8C 271:069 JLINK_WriteReg(PSP, 0x20001000)  returns 0x00 (0001ms, 3604ms total)
T7A8C 271:070 JLINK_WriteReg(CFBP, 0x00000000)  returns 0x00 (0000ms, 3604ms total)
T7A8C 271:070 JLINK_SetBPEx(Addr = 0x20000000, Type = 0xFFFFFFF2)  returns 0x0000000D (0000ms, 3604ms total)
T7A8C 271:070 JLINK_Go() -- CPU_ReadMem(4 bytes @ 0xE0001000) (0002ms, 3606ms total)
T7A8C 271:072 JLINK_IsHalted()  returns FALSE (0000ms, 3606ms total)
T7A8C 271:080 JLINK_IsHalted() -- CPU_ReadMem(2 bytes @ 0x20000000)  returns TRUE (0002ms, 3608ms total)
T7A8C 271:082 JLINK_ReadReg(R15 (PC))  returns 0x20000000 (0000ms, 3606ms total)
T7A8C 271:082 JLINK_ClrBPEx(BPHandle = 0x0000000D)  returns 0x00 (0000ms, 3606ms total)
T7A8C 271:082 JLINK_ReadReg(R0)  returns 0x00000000 (0000ms, 3606ms total)
T7A8C 271:083 JLINK_WriteReg(R0, 0x08000600)  returns 0x00 (0000ms, 3606ms total)
T7A8C 271:083 JLINK_WriteReg(R1, 0x00000100)  returns 0x00 (0000ms, 3606ms total)
T7A8C 271:083 JLINK_WriteReg(R2, 0x00000000)  returns 0x00 (0000ms, 3606ms total)
T7A8C 271:083 JLINK_WriteReg(R3, 0x00000000)  returns 0x00 (0000ms, 3606ms total)
T7A8C 271:083 JLINK_WriteReg(R4, 0x00000000)  returns 0x00 (0001ms, 3607ms total)
T7A8C 271:084 JLINK_WriteReg(R5, 0x00000000)  returns 0x00 (0000ms, 3607ms total)
T7A8C 271:084 JLINK_WriteReg(R6, 0x00000000)  returns 0x00 (0000ms, 3607ms total)
T7A8C 271:084 JLINK_WriteReg(R7, 0x00000000)  returns 0x00 (0000ms, 3607ms total)
T7A8C 271:084 JLINK_WriteReg(R8, 0x00000000)  returns 0x00 (0000ms, 3607ms total)
T7A8C 271:084 JLINK_WriteReg(R9, 0x20000214)  returns 0x00 (0000ms, 3607ms total)
T7A8C 271:084 JLINK_WriteReg(R10, 0x00000000)  returns 0x00 (0000ms, 3607ms total)
T7A8C 271:084 JLINK_WriteReg(R11, 0x00000000)  returns 0x00 (0000ms, 3607ms total)
T7A8C 271:084 JLINK_WriteReg(R12, 0x00000000)  returns 0x00 (0000ms, 3607ms total)
T7A8C 271:084 JLINK_WriteReg(R13 (SP), 0x20001000)  returns 0x00 (0000ms, 3607ms total)
T7A8C 271:084 JLINK_WriteReg(R14, 0x20000001)  returns 0x00 (0000ms, 3607ms total)
T7A8C 271:084 JLINK_WriteReg(R15 (PC), 0x200000FA)  returns 0x00 (0000ms, 3607ms total)
T7A8C 271:084 JLINK_WriteReg(XPSR, 0x01000000)  returns 0x00 (0000ms, 3607ms total)
T7A8C 271:084 JLINK_WriteReg(MSP, 0x20001000)  returns 0x00 (0000ms, 3607ms total)
T7A8C 271:084 JLINK_WriteReg(PSP, 0x20001000)  returns 0x00 (0000ms, 3607ms total)
T7A8C 271:084 JLINK_WriteReg(CFBP, 0x00000000)  returns 0x00 (0000ms, 3607ms total)
T7A8C 271:084 JLINK_SetBPEx(Addr = 0x20000000, Type = 0xFFFFFFF2)  returns 0x0000000E (0000ms, 3607ms total)
T7A8C 271:084 JLINK_Go() -- CPU_ReadMem(4 bytes @ 0xE0001000) (0002ms, 3609ms total)
T7A8C 271:086 JLINK_IsHalted() -- CPU_ReadMem(2 bytes @ 0x20000000)  returns TRUE (0003ms, 3612ms total)
T7A8C 271:089 JLINK_ReadReg(R15 (PC))  returns 0x20000000 (0000ms, 3609ms total)
T7A8C 271:089 JLINK_ClrBPEx(BPHandle = 0x0000000E)  returns 0x00 (0000ms, 3609ms total)
T7A8C 271:089 JLINK_ReadReg(R0)  returns 0x00000001 (0000ms, 3609ms total)
T7A8C 271:089 JLINK_WriteReg(R0, 0x08000600)  returns 0x00 (0000ms, 3609ms total)
T7A8C 271:089 JLINK_WriteReg(R1, 0x00000100)  returns 0x00 (0000ms, 3609ms total)
T7A8C 271:089 JLINK_WriteReg(R2, 0x00000000)  returns 0x00 (0000ms, 3609ms total)
T7A8C 271:089 JLINK_WriteReg(R3, 0x00000000)  returns 0x00 (0000ms, 3609ms total)
T7A8C 271:089 JLINK_WriteReg(R4, 0x00000000)  returns 0x00 (0000ms, 3609ms total)
T7A8C 271:089 JLINK_WriteReg(R5, 0x00000000)  returns 0x00 (0000ms, 3609ms total)
T7A8C 271:089 JLINK_WriteReg(R6, 0x00000000)  returns 0x00 (0000ms, 3609ms total)
T7A8C 271:089 JLINK_WriteReg(R7, 0x00000000)  returns 0x00 (0000ms, 3609ms total)
T7A8C 271:089 JLINK_WriteReg(R8, 0x00000000)  returns 0x00 (0000ms, 3609ms total)
T7A8C 271:089 JLINK_WriteReg(R9, 0x20000214)  returns 0x00 (0000ms, 3609ms total)
T7A8C 271:089 JLINK_WriteReg(R10, 0x00000000)  returns 0x00 (0000ms, 3609ms total)
T7A8C 271:089 JLINK_WriteReg(R11, 0x00000000)  returns 0x00 (0000ms, 3609ms total)
T7A8C 271:089 JLINK_WriteReg(R12, 0x00000000)  returns 0x00 (0000ms, 3609ms total)
T7A8C 271:089 JLINK_WriteReg(R13 (SP), 0x20001000)  returns 0x00 (0000ms, 3609ms total)
T7A8C 271:089 JLINK_WriteReg(R14, 0x20000001)  returns 0x00 (0000ms, 3609ms total)
T7A8C 271:089 JLINK_WriteReg(R15 (PC), 0x200000A8)  returns 0x00 (0000ms, 3609ms total)
T7A8C 271:089 JLINK_WriteReg(XPSR, 0x01000000)  returns 0x00 (0000ms, 3609ms total)
T7A8C 271:089 JLINK_WriteReg(MSP, 0x20001000)  returns 0x00 (0000ms, 3609ms total)
T7A8C 271:089 JLINK_WriteReg(PSP, 0x20001000)  returns 0x00 (0000ms, 3609ms total)
T7A8C 271:089 JLINK_WriteReg(CFBP, 0x00000000)  returns 0x00 (0000ms, 3609ms total)
T7A8C 271:089 JLINK_SetBPEx(Addr = 0x20000000, Type = 0xFFFFFFF2)  returns 0x0000000F (0001ms, 3610ms total)
T7A8C 271:090 JLINK_Go() -- CPU_ReadMem(4 bytes @ 0xE0001000) (0002ms, 3612ms total)
T7A8C 271:092 JLINK_IsHalted()  returns FALSE (0000ms, 3612ms total)
T7A8C 271:097 JLINK_IsHalted() -- CPU_ReadMem(2 bytes @ 0x20000000)  returns TRUE (0002ms, 3614ms total)
T7A8C 271:099 JLINK_ReadReg(R15 (PC))  returns 0x20000000 (0000ms, 3612ms total)
T7A8C 271:099 JLINK_ClrBPEx(BPHandle = 0x0000000F)  returns 0x00 (0000ms, 3612ms total)
T7A8C 271:099 JLINK_ReadReg(R0)  returns 0x00000000 (0000ms, 3612ms total)
T7A8C 271:100 JLINK_WriteReg(R0, 0x08000700)  returns 0x00 (0000ms, 3612ms total)
T7A8C 271:100 JLINK_WriteReg(R1, 0x00000100)  returns 0x00 (0000ms, 3612ms total)
T7A8C 271:100 JLINK_WriteReg(R2, 0x00000000)  returns 0x00 (0000ms, 3612ms total)
T7A8C 271:100 JLINK_WriteReg(R3, 0x00000000)  returns 0x00 (0000ms, 3612ms total)
T7A8C 271:100 JLINK_WriteReg(R4, 0x00000000)  returns 0x00 (0000ms, 3612ms total)
T7A8C 271:100 JLINK_WriteReg(R5, 0x00000000)  returns 0x00 (0000ms, 3612ms total)
T7A8C 271:100 JLINK_WriteReg(R6, 0x00000000)  returns 0x00 (0000ms, 3612ms total)
T7A8C 271:101 JLINK_WriteReg(R7, 0x00000000)  returns 0x00 (0000ms, 3613ms total)
T7A8C 271:101 JLINK_WriteReg(R8, 0x00000000)  returns 0x00 (0000ms, 3613ms total)
T7A8C 271:101 JLINK_WriteReg(R9, 0x20000214)  returns 0x00 (0000ms, 3613ms total)
T7A8C 271:101 JLINK_WriteReg(R10, 0x00000000)  returns 0x00 (0000ms, 3613ms total)
T7A8C 271:101 JLINK_WriteReg(R11, 0x00000000)  returns 0x00 (0000ms, 3613ms total)
T7A8C 271:101 JLINK_WriteReg(R12, 0x00000000)  returns 0x00 (0000ms, 3613ms total)
T7A8C 271:101 JLINK_WriteReg(R13 (SP), 0x20001000)  returns 0x00 (0000ms, 3613ms total)
T7A8C 271:101 JLINK_WriteReg(R14, 0x20000001)  returns 0x00 (0000ms, 3613ms total)
T7A8C 271:101 JLINK_WriteReg(R15 (PC), 0x200000FA)  returns 0x00 (0000ms, 3613ms total)
T7A8C 271:101 JLINK_WriteReg(XPSR, 0x01000000)  returns 0x00 (0000ms, 3613ms total)
T7A8C 271:101 JLINK_WriteReg(MSP, 0x20001000)  returns 0x00 (0000ms, 3613ms total)
T7A8C 271:101 JLINK_WriteReg(PSP, 0x20001000)  returns 0x00 (0000ms, 3613ms total)
T7A8C 271:101 JLINK_WriteReg(CFBP, 0x00000000)  returns 0x00 (0000ms, 3613ms total)
T7A8C 271:101 JLINK_SetBPEx(Addr = 0x20000000, Type = 0xFFFFFFF2)  returns 0x00000010 (0000ms, 3613ms total)
T7A8C 271:101 JLINK_Go() -- CPU_ReadMem(4 bytes @ 0xE0001000) (0002ms, 3615ms total)
T7A8C 271:103 JLINK_IsHalted() -- CPU_ReadMem(2 bytes @ 0x20000000)  returns TRUE (0003ms, 3618ms total)
T7A8C 271:106 JLINK_ReadReg(R15 (PC))  returns 0x20000000 (0000ms, 3615ms total)
T7A8C 271:106 JLINK_ClrBPEx(BPHandle = 0x00000010)  returns 0x00 (0000ms, 3615ms total)
T7A8C 271:106 JLINK_ReadReg(R0)  returns 0x00000001 (0000ms, 3615ms total)
T7A8C 271:106 JLINK_WriteReg(R0, 0x08000700)  returns 0x00 (0000ms, 3615ms total)
T7A8C 271:106 JLINK_WriteReg(R1, 0x00000100)  returns 0x00 (0000ms, 3615ms total)
T7A8C 271:106 JLINK_WriteReg(R2, 0x00000000)  returns 0x00 (0000ms, 3615ms total)
T7A8C 271:106 JLINK_WriteReg(R3, 0x00000000)  returns 0x00 (0000ms, 3615ms total)
T7A8C 271:106 JLINK_WriteReg(R4, 0x00000000)  returns 0x00 (0000ms, 3615ms total)
T7A8C 271:106 JLINK_WriteReg(R5, 0x00000000)  returns 0x00 (0000ms, 3615ms total)
T7A8C 271:106 JLINK_WriteReg(R6, 0x00000000)  returns 0x00 (0000ms, 3615ms total)
T7A8C 271:106 JLINK_WriteReg(R7, 0x00000000)  returns 0x00 (0000ms, 3615ms total)
T7A8C 271:106 JLINK_WriteReg(R8, 0x00000000)  returns 0x00 (0000ms, 3615ms total)
T7A8C 271:106 JLINK_WriteReg(R9, 0x20000214)  returns 0x00 (0000ms, 3615ms total)
T7A8C 271:106 JLINK_WriteReg(R10, 0x00000000)  returns 0x00 (0000ms, 3615ms total)
T7A8C 271:106 JLINK_WriteReg(R11, 0x00000000)  returns 0x00 (0000ms, 3615ms total)
T7A8C 271:106 JLINK_WriteReg(R12, 0x00000000)  returns 0x00 (0000ms, 3615ms total)
T7A8C 271:106 JLINK_WriteReg(R13 (SP), 0x20001000)  returns 0x00 (0000ms, 3615ms total)
T7A8C 271:106 JLINK_WriteReg(R14, 0x20000001)  returns 0x00 (0000ms, 3615ms total)
T7A8C 271:106 JLINK_WriteReg(R15 (PC), 0x200000A8)  returns 0x00 (0000ms, 3615ms total)
T7A8C 271:106 JLINK_WriteReg(XPSR, 0x01000000)  returns 0x00 (0000ms, 3615ms total)
T7A8C 271:106 JLINK_WriteReg(MSP, 0x20001000)  returns 0x00 (0000ms, 3615ms total)
T7A8C 271:106 JLINK_WriteReg(PSP, 0x20001000)  returns 0x00 (0000ms, 3615ms total)
T7A8C 271:106 JLINK_WriteReg(CFBP, 0x00000000)  returns 0x00 (0000ms, 3615ms total)
T7A8C 271:106 JLINK_SetBPEx(Addr = 0x20000000, Type = 0xFFFFFFF2)  returns 0x00000011 (0001ms, 3616ms total)
T7A8C 271:107 JLINK_Go() -- CPU_ReadMem(4 bytes @ 0xE0001000) (0002ms, 3618ms total)
T7A8C 271:109 JLINK_IsHalted()  returns FALSE (0000ms, 3618ms total)
T7A8C 271:114 JLINK_IsHalted() -- CPU_ReadMem(2 bytes @ 0x20000000)  returns TRUE (0002ms, 3620ms total)
T7A8C 271:116 JLINK_ReadReg(R15 (PC))  returns 0x20000000 (0000ms, 3618ms total)
T7A8C 271:116 JLINK_ClrBPEx(BPHandle = 0x00000011)  returns 0x00 (0000ms, 3618ms total)
T7A8C 271:116 JLINK_ReadReg(R0)  returns 0x00000000 (0000ms, 3618ms total)
T7A8C 271:116 JLINK_WriteReg(R0, 0x08000800)  returns 0x00 (0001ms, 3619ms total)
T7A8C 271:117 JLINK_WriteReg(R1, 0x00000100)  returns 0x00 (0000ms, 3619ms total)
T7A8C 271:117 JLINK_WriteReg(R2, 0x00000000)  returns 0x00 (0000ms, 3619ms total)
T7A8C 271:117 JLINK_WriteReg(R3, 0x00000000)  returns 0x00 (0000ms, 3619ms total)
T7A8C 271:117 JLINK_WriteReg(R4, 0x00000000)  returns 0x00 (0000ms, 3619ms total)
T7A8C 271:117 JLINK_WriteReg(R5, 0x00000000)  returns 0x00 (0000ms, 3619ms total)
T7A8C 271:117 JLINK_WriteReg(R6, 0x00000000)  returns 0x00 (0000ms, 3619ms total)
T7A8C 271:117 JLINK_WriteReg(R7, 0x00000000)  returns 0x00 (0000ms, 3619ms total)
T7A8C 271:117 JLINK_WriteReg(R8, 0x00000000)  returns 0x00 (0000ms, 3619ms total)
T7A8C 271:117 JLINK_WriteReg(R9, 0x20000214)  returns 0x00 (0000ms, 3619ms total)
T7A8C 271:117 JLINK_WriteReg(R10, 0x00000000)  returns 0x00 (0000ms, 3619ms total)
T7A8C 271:117 JLINK_WriteReg(R11, 0x00000000)  returns 0x00 (0000ms, 3619ms total)
T7A8C 271:117 JLINK_WriteReg(R12, 0x00000000)  returns 0x00 (0000ms, 3619ms total)
T7A8C 271:117 JLINK_WriteReg(R13 (SP), 0x20001000)  returns 0x00 (0000ms, 3619ms total)
T7A8C 271:117 JLINK_WriteReg(R14, 0x20000001)  returns 0x00 (0000ms, 3619ms total)
T7A8C 271:117 JLINK_WriteReg(R15 (PC), 0x200000FA)  returns 0x00 (0000ms, 3619ms total)
T7A8C 271:117 JLINK_WriteReg(XPSR, 0x01000000)  returns 0x00 (0000ms, 3619ms total)
T7A8C 271:117 JLINK_WriteReg(MSP, 0x20001000)  returns 0x00 (0000ms, 3619ms total)
T7A8C 271:117 JLINK_WriteReg(PSP, 0x20001000)  returns 0x00 (0000ms, 3619ms total)
T7A8C 271:117 JLINK_WriteReg(CFBP, 0x00000000)  returns 0x00 (0000ms, 3619ms total)
